
T336C 001:181 SEGGER J-Link V4.96d Log File (0000ms, 1144ms total)
T336C 001:181 DLL Compiled: Jan 29 2015 11:45:37 (0000ms, 1144ms total)
T336C 001:181 Logging started @ 2016-09-29 19:58 (0000ms, 1144ms total)
T336C 001:181 JLINK_SetWarnOutHandler(...) (0000ms, 1144ms total)
T336C 001:181 JLINK_OpenEx(...)
Firmware: J-Link ARM V8 compiled Nov 25 2013 19:20:08
Hardware: V8.00
S/N: 99999993
Feature(s): RDI,FlashDL,FlashBP,JFlash,GDBFULL  returns O.K. (1817ms, 2961ms total)
T336C 002:998 JLINK_SetErrorOutHandler(...) (0000ms, 2961ms total)
T336C 002:998 JLINK_ExecCommand("ProjectFile = "D:\car\2016.9.27 验收备案\PRJ\JLinkSettings.ini"", ...)  returns 0x00 (0001ms, 2962ms total)
T336C 003:004 JLINK_ExecCommand("Device = MK60DN512xxx10", ...)Device "MK60DN512XXX10" selected.  returns 0x00 (0011ms, 2973ms total)
T336C 003:015 JLINK_ExecCommand("DisableConnectionTimeout", ...)  returns 0x01 (0000ms, 2973ms total)
T336C 003:015 JLINK_GetHardwareVersion()  returns 0x13880 (0000ms, 2973ms total)
T336C 003:015 JLINK_GetDLLVersion()  returns 49604 (0000ms, 2973ms total)
T336C 003:015 JLINK_GetFirmwareString(...) (0000ms, 2973ms total)
T336C 003:038 JLINK_GetDLLVersion()  returns 49604 (0000ms, 2973ms total)
T336C 003:038 JLINK_GetCompileDateTime() (0000ms, 2973ms total)
T336C 003:043 JLINK_GetFirmwareString(...) (0000ms, 2973ms total)
T336C 003:047 JLINK_GetHardwareVersion()  returns 0x13880 (0000ms, 2973ms total)
T336C 003:066 JLINK_TIF_Select(JLINKARM_TIF_SWD)  returns 0x00 (0001ms, 2974ms total)
T336C 003:067 JLINK_SetSpeed(33000) (0000ms, 2974ms total)
T336C 003:067 JLINK_GetId() >0x108 TIF>Found SWD-DP with ID 0x2BA01477 >0x0D TIF> >0x28 TIF> >0x0D TIF> >0x28 TIF> >0x0D TIF> >0x21 TIF> >0x0D TIF> >0x28 TIF> >0x0D TIF> >0x21 TIF> >0x0D TIF> >0x21 TIF> >0x0D TIF> >0x21 TIF> >0x0D TIF> >0x21 TIF> >0x0D TIF> >0x21 TIF> >0x0D TIF> >0x21 TIF> >0x0D TIF> >0x21 TIF> >0x0D TIF> >0x21 TIF> >0x0D TIF> >0x21 TIF> >0x0D TIF> >0x21 TIF> >0x0D TIF> >0x28 TIF> >0x0D TIF> >0x28 TIF> >0x0D TIF> >0x28 TIF> >0x0D TIF> >0x28 TIF> >0x0D TIF> >0x28 TIF> >0x0D TIF>
 >0x28 TIF> >0x0D TIF> >0x28 TIF> >0x0D TIF> >0x21 TIF> >0x0D TIF> >0x21 TIF> >0x0D TIF> >0x28 TIF> >0x108 TIF>Found SWD-DP with ID 0x2BA01477 >0x0D TIF> >0x21 TIF> >0x0D TIF> >0x28 TIF> >0x0D TIF> >0x28 TIF> >0x0D TIF> >0x21 TIF> >0x0D TIF> >0x28 TIF> >0x0D TIF> >0x21 TIF> >0x0D TIF> >0x21 TIF> >0x0D TIF> >0x21 TIF> >0x0D TIF> >0x21 TIF> >0x0D TIF> >0x28 TIF> >0x0D TIF> >0x28 TIF> >0x0D TIF> >0x21 TIF> >0x0D TIF> >0x28 TIF> >0x0D TIF> >0x28 TIF> >0x0D TIF> >0x28 TIF> >0x0D TIF> >0x21 TIF> >0x0D TIF>
 >0x21 TIF> >0x0D TIF> >0x28 TIF> >0x0D TIF> >0x21 TIF> >0x0D TIF> >0x21 TIF>Found Cortex-M4 r0p0, Little endian. -- CPU_WriteMem(4 bytes @ 0xE0002000) -- CPU_ReadMem(4 bytes @ 0xE000EDF0) -- CPU_ReadMem(4 bytes @ 0xE0002000)FPUnit: 6 code (BP) slots and 2 literal slots -- CPU_ReadMem(4 bytes @ 0xE000EDFC) -- CPU_WriteMem(4 bytes @ 0xE000EDFC) -- CPU_ReadMem(4 bytes @ 0xE0001000) -- CPU_WriteMem(4 bytes @ 0xE0001000) -- CPU_ReadMem(4 bytes @ 0xE000ED88) -- CPU_WriteMem(4 bytes @ 0xE000ED88)
 -- CPU_ReadMem(4 bytes @ 0xE000ED88) -- CPU_WriteMem(4 bytes @ 0xE000ED88) -- CPU_ReadMem(4 bytes @ 0xE00FF010)TPIU fitted.ETM fitted.ETB present.CSTF present. -- CPU_ReadMem(4 bytes @ 0xE00FF018) -- CPU_ReadMem(4 bytes @ 0xE0042FE0) -- CPU_ReadMem(4 bytes @ 0xE0042FE4) -- CPU_ReadMem(4 bytes @ 0xE00FF01C) -- CPU_ReadMem(4 bytes @ 0xE0043FE0) -- CPU_ReadMem(4 bytes @ 0xE0043FE4) -- CPU_ReadMem(4 bytes @ 0xE00FF020) -- CPU_ReadMem(2 bytes @ 0x40052000) >0x0D TIF> >0x21 TIF>  returns 0x2BA01477
 (0084ms, 3058ms total)
T336C 003:151 JLINK_GetDLLVersion()  returns 49604 (0000ms, 3058ms total)
T336C 003:151 JLINK_CORE_GetFound()  returns 0xE0000FF (0000ms, 3058ms total)
T336C 003:151 JLINK_GetDebugInfo(0x100) -- Value=0xE00FF003  returns 0x00 (0000ms, 3058ms total)
T336C 003:156 JLINK_ReadMem (0xE00FF000, 0x0020 Bytes, ...) -- CPU is running -- CPU_ReadMem(32 bytes @ 0xE00FF000) - Data: 03 F0 F0 FF 03 20 F0 FF 03 30 F0 FF 03 10 F0 FF ...  returns 0x00 (0000ms, 3058ms total)
T336C 003:156 JLINK_ReadMem (0xE000EFF0, 0x0010 Bytes, ...) -- CPU is running -- CPU_ReadMem(16 bytes @ 0xE000EFF0) - Data: 0D 00 00 00 E0 00 00 00 05 00 00 00 B1 00 00 00  returns 0x00 (0001ms, 3059ms total)
T336C 003:157 JLINK_ReadMem (0xE000EFD0, 0x0020 Bytes, ...) -- CPU is running -- CPU_ReadMem(32 bytes @ 0xE000EFD0) - Data: 04 00 00 00 00 00 00 00 00 00 00 00 00 00 00 00 ...  returns 0x00 (0001ms, 3060ms total)
T336C 003:158 JLINK_ReadMem (0xE0001FF0, 0x0010 Bytes, ...) -- CPU is running -- CPU_ReadMem(16 bytes @ 0xE0001FF0) - Data: 0D 00 00 00 E0 00 00 00 05 00 00 00 B1 00 00 00  returns 0x00 (0001ms, 3061ms total)
T336C 003:159 JLINK_ReadMem (0xE0001FD0, 0x0020 Bytes, ...) -- CPU is running -- CPU_ReadMem(32 bytes @ 0xE0001FD0) - Data: 04 00 00 00 00 00 00 00 00 00 00 00 00 00 00 00 ...  returns 0x00 (0000ms, 3061ms total)
T336C 003:159 JLINK_ReadMem (0xE0002FF0, 0x0010 Bytes, ...) -- CPU is running -- CPU_ReadMem(16 bytes @ 0xE0002FF0) - Data: 0D 00 00 00 E0 00 00 00 05 00 00 00 B1 00 00 00  returns 0x00 (0001ms, 3062ms total)
T336C 003:160 JLINK_ReadMem (0xE0002FD0, 0x0020 Bytes, ...) -- CPU is running -- CPU_ReadMem(32 bytes @ 0xE0002FD0) - Data: 04 00 00 00 00 00 00 00 00 00 00 00 00 00 00 00 ...  returns 0x00 (0001ms, 3063ms total)
T336C 003:161 JLINK_ReadMem (0xE0000FF0, 0x0010 Bytes, ...) -- CPU is running -- CPU_ReadMem(16 bytes @ 0xE0000FF0) - Data: 0D 00 00 00 E0 00 00 00 05 00 00 00 B1 00 00 00  returns 0x00 (0000ms, 3063ms total)
T336C 003:161 JLINK_ReadMem (0xE0000FD0, 0x0020 Bytes, ...) -- CPU is running -- CPU_ReadMem(32 bytes @ 0xE0000FD0) - Data: 04 00 00 00 00 00 00 00 00 00 00 00 00 00 00 00 ...  returns 0x00 (0001ms, 3064ms total)
T336C 003:162 JLINK_ReadMem (0xE0040FF0, 0x0010 Bytes, ...) -- CPU is running -- CPU_ReadMem(16 bytes @ 0xE0040FF0) - Data: 0D 00 00 00 90 00 00 00 05 00 00 00 B1 00 00 00  returns 0x00 (0000ms, 3064ms total)
T336C 003:162 JLINK_ReadMem (0xE0040FD0, 0x0020 Bytes, ...) -- CPU is running -- CPU_ReadMem(32 bytes @ 0xE0040FD0) - Data: 04 00 00 00 00 00 00 00 00 00 00 00 00 00 00 00 ...  returns 0x00 (0001ms, 3065ms total)
T336C 003:163 JLINK_ReadMem (0xE0041FF0, 0x0010 Bytes, ...) -- CPU is running -- CPU_ReadMem(16 bytes @ 0xE0041FF0) - Data: 0D 00 00 00 90 00 00 00 05 00 00 00 B1 00 00 00  returns 0x00 (0001ms, 3066ms total)
T336C 003:164 JLINK_ReadMem (0xE0041FD0, 0x0020 Bytes, ...) -- CPU is running -- CPU_ReadMem(32 bytes @ 0xE0041FD0) - Data: 04 00 00 00 00 00 00 00 00 00 00 00 00 00 00 00 ...  returns 0x00 (0001ms, 3067ms total)
T336C 003:165 JLINK_ReadMem (0xE0042FF0, 0x0010 Bytes, ...) -- CPU is running -- CPU_ReadMem(16 bytes @ 0xE0042FF0) - Data: 0D 00 00 00 90 00 00 00 05 00 00 00 B1 00 00 00  returns 0x00 (0000ms, 3067ms total)
T336C 003:165 JLINK_ReadMem (0xE0042FD0, 0x0020 Bytes, ...) -- CPU is running -- CPU_ReadMem(32 bytes @ 0xE0042FD0) - Data: 04 00 00 00 00 00 00 00 00 00 00 00 00 00 00 00 ...  returns 0x00 (0001ms, 3068ms total)
T336C 003:166 JLINK_ReadMem (0xE0043FF0, 0x0010 Bytes, ...) -- CPU is running -- CPU_ReadMem(16 bytes @ 0xE0043FF0) - Data: 0D 00 00 00 90 00 00 00 05 00 00 00 B1 00 00 00  returns 0x00 (0001ms, 3069ms total)
T336C 003:167 JLINK_ReadMem (0xE0043FD0, 0x0020 Bytes, ...) -- CPU is running -- CPU_ReadMem(32 bytes @ 0xE0043FD0) - Data: 04 00 00 00 00 00 00 00 00 00 00 00 00 00 00 00 ...  returns 0x00 (0001ms, 3070ms total)
T336C 003:168 JLINK_ReadMem (0xE00FF020, 0x0020 Bytes, ...) -- CPU is running -- CPU_ReadMem(32 bytes @ 0xE00FF020) - Data: 00 00 00 00 00 00 00 00 00 00 00 00 00 00 00 00 ...  returns 0x00 (0000ms, 3070ms total)
T336C 003:168 JLINK_ReadMemU32(0xE000EF40, 0x0001 Items, ...) -- CPU is running -- CPU_ReadMem(4 bytes @ 0xE000EF40) - Data: 00 00 00 00  returns 0x01 (0001ms, 3071ms total)
T336C 003:169 JLINK_ReadMemU32(0xE000ED00, 0x0001 Items, ...) -- CPU is running -- CPU_ReadMem(4 bytes @ 0xE000ED00) - Data: 40 C2 0F 41  returns 0x01 (0000ms, 3071ms total)
T336C 003:169 JLINK_SetResetType(JLINKARM_RESET_TYPE_NORMAL)  returns JLINKARM_RESET_TYPE_SOFT (0000ms, 3071ms total)
T336C 003:169 JLINK_Reset() -- CPU is running -- CPU_WriteMem(4 bytes @ 0xE000EDF0) -- CPU is running -- CPU_WriteMem(4 bytes @ 0xE000EDFC) >0x35 TIF> -- CPU is running -- CPU_WriteMem(4 bytes @ 0xE000ED0C) -- CPU is running -- CPU_ReadMem(4 bytes @ 0xE000EDF0) -- CPU is running -- CPU_ReadMem(4 bytes @ 0xE000EDF0) -- CPU is running -- CPU_WriteMem(4 bytes @ 0xE000EDF0) -- CPU is running -- CPU_WriteMem(4 bytes @ 0xE000EDFC) -- CPU is running -- CPU_ReadMem(4 bytes @ 0xE000EDF0)
 -- CPU_ReadMem(8 bytes @ 0x20000000) -- CPU_WriteMem(8 bytes @ 0x20000000) -- CPU_WriteMem(8 bytes @ 0x20000000) -- CPU_WriteMem(4 bytes @ 0xE0002000) -- CPU_ReadMem(4 bytes @ 0xE000EDFC) -- CPU_ReadMem(4 bytes @ 0xE0001000) (0022ms, 3093ms total)
T336C 003:191 JLINK_Halt()  returns 0x00 (0000ms, 3093ms total)
T336C 003:191 JLINK_IsHalted()  returns TRUE (0000ms, 3093ms total)
T336C 003:191 JLINK_ReadMemU32(0xE000EDF0, 0x0001 Items, ...) -- CPU_ReadMem(4 bytes @ 0xE000EDF0) - Data: 03 00 03 00  returns 0x01 (0000ms, 3093ms total)
T336C 003:191 JLINK_WriteU32(0xE000EDF0, 0xA05F0003) -- CPU_WriteMem(4 bytes @ 0xE000EDF0)  returns 0x00 (0001ms, 3094ms total)
T336C 003:192 JLINK_WriteU32(0xE000EDFC, 0x01000000) -- CPU_WriteMem(4 bytes @ 0xE000EDFC)  returns 0x00 (0000ms, 3094ms total)
T336C 003:213 JLINK_GetHWStatus(...)  returns 0x00 (0000ms, 3094ms total)
T336C 003:226 JLINK_GetNumBPUnits(Type = 0xFFFFFF00)  returns 0x06 (0000ms, 3094ms total)
T336C 003:226 JLINK_GetNumBPUnits(Type = 0xF0)  returns 0x2000 (0000ms, 3094ms total)
T336C 003:226 JLINK_GetNumWPUnits()  returns 0x04 (0000ms, 3094ms total)
T336C 003:242 JLINK_GetSpeed()  returns 0xFA0 (0000ms, 3094ms total)
T336C 003:249 JLINK_ReadMemU32(0xE000E004, 0x0001 Items, ...) -- CPU_ReadMem(4 bytes @ 0xE000E004) - Data: 02 00 00 00  returns 0x01 (0001ms, 3095ms total)
T336C 003:250 JLINK_ReadMemU32(0xE000E004, 0x0001 Items, ...) -- CPU_ReadMem(4 bytes @ 0xE000E004) - Data: 02 00 00 00  returns 0x01 (0000ms, 3095ms total)
T336C 003:250 JLINK_WriteMem(0xE0001000, 0x001C Bytes, ...) - Data: 01 00 00 00 00 00 00 00 00 00 00 00 00 00 00 00 ... -- CPU_WriteMem(28 bytes @ 0xE0001000)  returns 0x1C (0001ms, 3096ms total)
T336C 003:251 JLINK_ReadMem (0xE0001000, 0x001C Bytes, ...) -- CPU_ReadMem(28 bytes @ 0xE0001000) - Data: 01 00 00 40 00 00 00 00 00 00 00 00 00 00 00 00 ...  returns 0x00 (0001ms, 3097ms total)
T336C 003:261 JLINK_Halt()  returns 0x00 (0000ms, 3097ms total)
T336C 003:261 JLINK_IsHalted()  returns TRUE (0000ms, 3097ms total)
T336C 003:266 JLINK_WriteMem(0x1FFF8000, 0x0508 Bytes, ...) - Data: 00 BE 0A E0 0D 78 2D 06 68 40 08 24 40 00 00 D3 ... -- CPU_WriteMem(1288 bytes @ 0x1FFF8000)  returns 0x508 (0008ms, 3105ms total)
T336C 003:274 JLINK_WriteReg(R0, 0x00000000)  returns 0x00 (0000ms, 3105ms total)
T336C 003:274 JLINK_WriteReg(R1, 0x05F5E100)  returns 0x00 (0000ms, 3105ms total)
T336C 003:274 JLINK_WriteReg(R2, 0x00000001)  returns 0x00 (0000ms, 3105ms total)
T336C 003:274 JLINK_WriteReg(R3, 0x00000000)  returns 0x00 (0000ms, 3105ms total)
T336C 003:274 JLINK_WriteReg(R4, 0x00000000)  returns 0x00 (0000ms, 3105ms total)
T336C 003:274 JLINK_WriteReg(R5, 0x00000000)  returns 0x00 (0000ms, 3105ms total)
T336C 003:274 JLINK_WriteReg(R6, 0x00000000)  returns 0x00 (0000ms, 3105ms total)
T336C 003:274 JLINK_WriteReg(R7, 0x00000000)  returns 0x00 (0000ms, 3105ms total)
T336C 003:274 JLINK_WriteReg(R8, 0x00000000)  returns 0x00 (0000ms, 3105ms total)
T336C 003:274 JLINK_WriteReg(R9, 0x1FFF8500)  returns 0x00 (0000ms, 3105ms total)
T336C 003:274 JLINK_WriteReg(R10, 0x00000000)  returns 0x00 (0000ms, 3105ms total)
T336C 003:274 JLINK_WriteReg(R11, 0x00000000)  returns 0x00 (0000ms, 3105ms total)
T336C 003:274 JLINK_WriteReg(R12, 0x00000000)  returns 0x00 (0000ms, 3105ms total)
T336C 003:274 JLINK_WriteReg(R13 (SP), 0x1FFF8800)  returns 0x00 (0000ms, 3105ms total)
T336C 003:274 JLINK_WriteReg(R14, 0x1FFF8001)  returns 0x00 (0000ms, 3105ms total)
T336C 003:274 JLINK_WriteReg(R15 (PC), 0x1FFF8020)  returns 0x00 (0000ms, 3105ms total)
T336C 003:274 JLINK_WriteReg(XPSR, 0x01000000)  returns 0x00 (0000ms, 3105ms total)
T336C 003:274 JLINK_WriteReg(MSP, 0x1FFF8800)  returns 0x00 (0000ms, 3105ms total)
T336C 003:274 JLINK_WriteReg(PSP, 0x1FFF8800)  returns 0x00 (0000ms, 3105ms total)
T336C 003:274 JLINK_WriteReg(CFBP, 0x00000000)  returns 0x00 (0000ms, 3105ms total)
T336C 003:274 JLINK_SetBPEx(Addr = 0x1FFF8000, Type = 0xFFFFFFF2)  returns 0x00000001 (0000ms, 3105ms total)
T336C 003:274 JLINK_Go() -- CPU_WriteMem(4 bytes @ 0xE0002000) -- CPU_WriteMem(4 bytes @ 0xE0002008) -- CPU_WriteMem(4 bytes @ 0xE000200C) -- CPU_WriteMem(4 bytes @ 0xE0002010) -- CPU_WriteMem(4 bytes @ 0xE0002014) -- CPU_WriteMem(4 bytes @ 0xE0002018) -- CPU_WriteMem(4 bytes @ 0xE000201C) -- CPU_WriteMem(4 bytes @ 0xE0001004) (0006ms, 3111ms total)
T336C 003:280 JLINK_IsHalted()  returns TRUE (0003ms, 3114ms total)
T336C 003:283 JLINK_ReadReg(R15 (PC))  returns 0x1FFF8000 (0000ms, 3111ms total)
T336C 003:283 JLINK_ClrBPEx(BPHandle = 0x00000001)  returns 0x00 (0000ms, 3111ms total)
T336C 003:283 JLINK_ReadReg(R0)  returns 0x00000000 (0000ms, 3111ms total)
T336C 003:283 JLINK_WriteReg(R0, 0x00000000)  returns 0x00 (0000ms, 3111ms total)
T336C 003:283 JLINK_WriteReg(R1, 0x00000800)  returns 0x00 (0000ms, 3111ms total)
T336C 003:283 JLINK_WriteReg(R2, 0x000000FF)  returns 0x00 (0000ms, 3111ms total)
T336C 003:283 JLINK_WriteReg(R3, 0x00000000)  returns 0x00 (0000ms, 3111ms total)
T336C 003:283 JLINK_WriteReg(R4, 0x00000000)  returns 0x00 (0000ms, 3111ms total)
T336C 003:283 JLINK_WriteReg(R5, 0x00000000)  returns 0x00 (0000ms, 3111ms total)
T336C 003:283 JLINK_WriteReg(R6, 0x00000000)  returns 0x00 (0000ms, 3111ms total)
T336C 003:283 JLINK_WriteReg(R7, 0x00000000)  returns 0x00 (0000ms, 3111ms total)
T336C 003:283 JLINK_WriteReg(R8, 0x00000000)  returns 0x00 (0000ms, 3111ms total)
T336C 003:283 JLINK_WriteReg(R9, 0x1FFF8500)  returns 0x00 (0000ms, 3111ms total)
T336C 003:283 JLINK_WriteReg(R10, 0x00000000)  returns 0x00 (0000ms, 3111ms total)
T336C 003:283 JLINK_WriteReg(R11, 0x00000000)  returns 0x00 (0000ms, 3111ms total)
T336C 003:283 JLINK_WriteReg(R12, 0x00000000)  returns 0x00 (0000ms, 3111ms total)
T336C 003:283 JLINK_WriteReg(R13 (SP), 0x1FFF8800)  returns 0x00 (0000ms, 3111ms total)
T336C 003:283 JLINK_WriteReg(R14, 0x1FFF8001)  returns 0x00 (0000ms, 3111ms total)
T336C 003:283 JLINK_WriteReg(R15 (PC), 0x1FFF8078)  returns 0x00 (0000ms, 3111ms total)
T336C 003:283 JLINK_WriteReg(XPSR, 0x01000000)  returns 0x00 (0000ms, 3111ms total)
T336C 003:283 JLINK_WriteReg(MSP, 0x1FFF8800)  returns 0x00 (0000ms, 3111ms total)
T336C 003:283 JLINK_WriteReg(PSP, 0x1FFF8800)  returns 0x00 (0000ms, 3111ms total)
T336C 003:283 JLINK_WriteReg(CFBP, 0x00000000)  returns 0x00 (0000ms, 3111ms total)
T336C 003:283 JLINK_SetBPEx(Addr = 0x1FFF8000, Type = 0xFFFFFFF2)  returns 0x00000002 (0000ms, 3111ms total)
T336C 003:283 JLINK_Go() -- CPU_WriteMem(4 bytes @ 0xE0002000) (0003ms, 3114ms total)
T336C 003:286 JLINK_IsHalted()  returns TRUE (0002ms, 3116ms total)
T336C 003:288 JLINK_ReadReg(R15 (PC))  returns 0x1FFF8000 (0000ms, 3114ms total)
T336C 003:288 JLINK_ClrBPEx(BPHandle = 0x00000002)  returns 0x00 (0000ms, 3114ms total)
T336C 003:288 JLINK_ReadReg(R0)  returns 0x00000001 (0000ms, 3114ms total)
T336C 003:288 JLINK_WriteReg(R0, 0x00000000)  returns 0x00 (0000ms, 3114ms total)
T336C 003:288 JLINK_WriteReg(R1, 0x00000800)  returns 0x00 (0000ms, 3114ms total)
T336C 003:288 JLINK_WriteReg(R2, 0x000000FF)  returns 0x00 (0000ms, 3114ms total)
T336C 003:288 JLINK_WriteReg(R3, 0x00000000)  returns 0x00 (0000ms, 3114ms total)
T336C 003:288 JLINK_WriteReg(R4, 0x00000000)  returns 0x00 (0000ms, 3114ms total)
T336C 003:288 JLINK_WriteReg(R5, 0x00000000)  returns 0x00 (0000ms, 3114ms total)
T336C 003:288 JLINK_WriteReg(R6, 0x00000000)  returns 0x00 (0000ms, 3114ms total)
T336C 003:288 JLINK_WriteReg(R7, 0x00000000)  returns 0x00 (0000ms, 3114ms total)
T336C 003:288 JLINK_WriteReg(R8, 0x00000000)  returns 0x00 (0000ms, 3114ms total)
T336C 003:288 JLINK_WriteReg(R9, 0x1FFF8500)  returns 0x00 (0000ms, 3114ms total)
T336C 003:288 JLINK_WriteReg(R10, 0x00000000)  returns 0x00 (0000ms, 3114ms total)
T336C 003:288 JLINK_WriteReg(R11, 0x00000000)  returns 0x00 (0000ms, 3114ms total)
T336C 003:288 JLINK_WriteReg(R12, 0x00000000)  returns 0x00 (0000ms, 3114ms total)
T336C 003:288 JLINK_WriteReg(R13 (SP), 0x1FFF8800)  returns 0x00 (0000ms, 3114ms total)
T336C 003:288 JLINK_WriteReg(R14, 0x1FFF8001)  returns 0x00 (0000ms, 3114ms total)
T336C 003:289 JLINK_WriteReg(R15 (PC), 0x1FFF80CE)  returns 0x00 (0000ms, 3115ms total)
T336C 003:289 JLINK_WriteReg(XPSR, 0x01000000)  returns 0x00 (0000ms, 3115ms total)
T336C 003:289 JLINK_WriteReg(MSP, 0x1FFF8800)  returns 0x00 (0000ms, 3115ms total)
T336C 003:289 JLINK_WriteReg(PSP, 0x1FFF8800)  returns 0x00 (0000ms, 3115ms total)
T336C 003:289 JLINK_WriteReg(CFBP, 0x00000000)  returns 0x00 (0000ms, 3115ms total)
T336C 003:289 JLINK_SetBPEx(Addr = 0x1FFF8000, Type = 0xFFFFFFF2)  returns 0x00000003 (0000ms, 3115ms total)
T336C 003:289 JLINK_Go() -- CPU_WriteMem(4 bytes @ 0xE0002000) (0002ms, 3117ms total)
T336C 003:291 JLINK_IsHalted()  returns FALSE (0001ms, 3118ms total)
T336C 003:367 JLINK_IsHalted()  returns TRUE (0003ms, 3120ms total)
T336C 003:370 JLINK_ReadReg(R15 (PC))  returns 0x1FFF8000 (0000ms, 3117ms total)
T336C 003:370 JLINK_ClrBPEx(BPHandle = 0x00000003)  returns 0x00 (0000ms, 3117ms total)
T336C 003:370 JLINK_ReadReg(R0)  returns 0x00000000 (0000ms, 3117ms total)
T336C 003:370 JLINK_WriteReg(R0, 0x00000800)  returns 0x00 (0000ms, 3117ms total)
T336C 003:370 JLINK_WriteReg(R1, 0x00000800)  returns 0x00 (0000ms, 3117ms total)
T336C 003:370 JLINK_WriteReg(R2, 0x000000FF)  returns 0x00 (0000ms, 3117ms total)
T336C 003:370 JLINK_WriteReg(R3, 0x00000000)  returns 0x00 (0000ms, 3117ms total)
T336C 003:370 JLINK_WriteReg(R4, 0x00000000)  returns 0x00 (0000ms, 3117ms total)
T336C 003:370 JLINK_WriteReg(R5, 0x00000000)  returns 0x00 (0000ms, 3117ms total)
T336C 003:370 JLINK_WriteReg(R6, 0x00000000)  returns 0x00 (0000ms, 3117ms total)
T336C 003:370 JLINK_WriteReg(R7, 0x00000000)  returns 0x00 (0000ms, 3117ms total)
T336C 003:370 JLINK_WriteReg(R8, 0x00000000)  returns 0x00 (0000ms, 3117ms total)
T336C 003:370 JLINK_WriteReg(R9, 0x1FFF8500)  returns 0x00 (0000ms, 3117ms total)
T336C 003:370 JLINK_WriteReg(R10, 0x00000000)  returns 0x00 (0000ms, 3117ms total)
T336C 003:370 JLINK_WriteReg(R11, 0x00000000)  returns 0x00 (0001ms, 3118ms total)
T336C 003:371 JLINK_WriteReg(R12, 0x00000000)  returns 0x00 (0000ms, 3118ms total)
T336C 003:371 JLINK_WriteReg(R13 (SP), 0x1FFF8800)  returns 0x00 (0000ms, 3118ms total)
T336C 003:371 JLINK_WriteReg(R14, 0x1FFF8001)  returns 0x00 (0000ms, 3118ms total)
T336C 003:371 JLINK_WriteReg(R15 (PC), 0x1FFF8078)  returns 0x00 (0000ms, 3118ms total)
T336C 003:371 JLINK_WriteReg(XPSR, 0x01000000)  returns 0x00 (0000ms, 3118ms total)
T336C 003:371 JLINK_WriteReg(MSP, 0x1FFF8800)  returns 0x00 (0000ms, 3118ms total)
T336C 003:371 JLINK_WriteReg(PSP, 0x1FFF8800)  returns 0x00 (0000ms, 3118ms total)
T336C 003:371 JLINK_WriteReg(CFBP, 0x00000000)  returns 0x00 (0000ms, 3118ms total)
T336C 003:371 JLINK_SetBPEx(Addr = 0x1FFF8000, Type = 0xFFFFFFF2)  returns 0x00000004 (0000ms, 3118ms total)
T336C 003:371 JLINK_Go() -- CPU_WriteMem(4 bytes @ 0xE0002000) (0001ms, 3119ms total)
T336C 003:372 JLINK_IsHalted()  returns TRUE (0003ms, 3122ms total)
T336C 003:375 JLINK_ReadReg(R15 (PC))  returns 0x1FFF8000 (0000ms, 3119ms total)
T336C 003:375 JLINK_ClrBPEx(BPHandle = 0x00000004)  returns 0x00 (0000ms, 3119ms total)
T336C 003:375 JLINK_ReadReg(R0)  returns 0x00000001 (0000ms, 3119ms total)
T336C 003:375 JLINK_WriteReg(R0, 0x00000800)  returns 0x00 (0000ms, 3119ms total)
T336C 003:375 JLINK_WriteReg(R1, 0x00000800)  returns 0x00 (0000ms, 3119ms total)
T336C 003:375 JLINK_WriteReg(R2, 0x000000FF)  returns 0x00 (0000ms, 3119ms total)
T336C 003:375 JLINK_WriteReg(R3, 0x00000000)  returns 0x00 (0000ms, 3119ms total)
T336C 003:375 JLINK_WriteReg(R4, 0x00000000)  returns 0x00 (0000ms, 3119ms total)
T336C 003:375 JLINK_WriteReg(R5, 0x00000000)  returns 0x00 (0000ms, 3119ms total)
T336C 003:375 JLINK_WriteReg(R6, 0x00000000)  returns 0x00 (0000ms, 3119ms total)
T336C 003:375 JLINK_WriteReg(R7, 0x00000000)  returns 0x00 (0000ms, 3119ms total)
T336C 003:375 JLINK_WriteReg(R8, 0x00000000)  returns 0x00 (0000ms, 3119ms total)
T336C 003:375 JLINK_WriteReg(R9, 0x1FFF8500)  returns 0x00 (0000ms, 3119ms total)
T336C 003:375 JLINK_WriteReg(R10, 0x00000000)  returns 0x00 (0000ms, 3119ms total)
T336C 003:375 JLINK_WriteReg(R11, 0x00000000)  returns 0x00 (0000ms, 3119ms total)
T336C 003:375 JLINK_WriteReg(R12, 0x00000000)  returns 0x00 (0000ms, 3119ms total)
T336C 003:375 JLINK_WriteReg(R13 (SP), 0x1FFF8800)  returns 0x00 (0000ms, 3119ms total)
T336C 003:375 JLINK_WriteReg(R14, 0x1FFF8001)  returns 0x00 (0000ms, 3119ms total)
T336C 003:375 JLINK_WriteReg(R15 (PC), 0x1FFF80CE)  returns 0x00 (0000ms, 3119ms total)
T336C 003:375 JLINK_WriteReg(XPSR, 0x01000000)  returns 0x00 (0000ms, 3119ms total)
T336C 003:375 JLINK_WriteReg(MSP, 0x1FFF8800)  returns 0x00 (0000ms, 3119ms total)
T336C 003:375 JLINK_WriteReg(PSP, 0x1FFF8800)  returns 0x00 (0000ms, 3119ms total)
T336C 003:375 JLINK_WriteReg(CFBP, 0x00000000)  returns 0x00 (0000ms, 3119ms total)
T336C 003:375 JLINK_SetBPEx(Addr = 0x1FFF8000, Type = 0xFFFFFFF2)  returns 0x00000005 (0000ms, 3119ms total)
T336C 003:375 JLINK_Go() -- CPU_WriteMem(4 bytes @ 0xE0002000) (0002ms, 3121ms total)
T336C 003:377 JLINK_IsHalted()  returns FALSE (0001ms, 3122ms total)
T336C 003:379 JLINK_IsHalted()  returns FALSE (0001ms, 3122ms total)
T336C 003:381 JLINK_IsHalted()  returns FALSE (0000ms, 3121ms total)
T336C 003:384 JLINK_IsHalted()  returns FALSE (0001ms, 3122ms total)
T336C 003:387 JLINK_IsHalted()  returns TRUE (0002ms, 3123ms total)
T336C 003:389 JLINK_ReadReg(R15 (PC))  returns 0x1FFF8000 (0000ms, 3121ms total)
T336C 003:389 JLINK_ClrBPEx(BPHandle = 0x00000005)  returns 0x00 (0000ms, 3121ms total)
T336C 003:389 JLINK_ReadReg(R0)  returns 0x00000000 (0000ms, 3121ms total)
T336C 003:390 JLINK_WriteReg(R0, 0x00001000)  returns 0x00 (0000ms, 3121ms total)
T336C 003:390 JLINK_WriteReg(R1, 0x00000800)  returns 0x00 (0000ms, 3121ms total)
T336C 003:390 JLINK_WriteReg(R2, 0x000000FF)  returns 0x00 (0000ms, 3121ms total)
T336C 003:390 JLINK_WriteReg(R3, 0x00000000)  returns 0x00 (0000ms, 3121ms total)
T336C 003:390 JLINK_WriteReg(R4, 0x00000000)  returns 0x00 (0000ms, 3121ms total)
T336C 003:390 JLINK_WriteReg(R5, 0x00000000)  returns 0x00 (0000ms, 3121ms total)
T336C 003:390 JLINK_WriteReg(R6, 0x00000000)  returns 0x00 (0000ms, 3121ms total)
T336C 003:390 JLINK_WriteReg(R7, 0x00000000)  returns 0x00 (0000ms, 3121ms total)
T336C 003:390 JLINK_WriteReg(R8, 0x00000000)  returns 0x00 (0000ms, 3121ms total)
T336C 003:390 JLINK_WriteReg(R9, 0x1FFF8500)  returns 0x00 (0000ms, 3121ms total)
T336C 003:390 JLINK_WriteReg(R10, 0x00000000)  returns 0x00 (0000ms, 3121ms total)
T336C 003:390 JLINK_WriteReg(R11, 0x00000000)  returns 0x00 (0000ms, 3121ms total)
T336C 003:390 JLINK_WriteReg(R12, 0x00000000)  returns 0x00 (0000ms, 3121ms total)
T336C 003:390 JLINK_WriteReg(R13 (SP), 0x1FFF8800)  returns 0x00 (0000ms, 3121ms total)
T336C 003:390 JLINK_WriteReg(R14, 0x1FFF8001)  returns 0x00 (0000ms, 3121ms total)
T336C 003:390 JLINK_WriteReg(R15 (PC), 0x1FFF8078)  returns 0x00 (0000ms, 3121ms total)
T336C 003:390 JLINK_WriteReg(XPSR, 0x01000000)  returns 0x00 (0000ms, 3121ms total)
T336C 003:390 JLINK_WriteReg(MSP, 0x1FFF8800)  returns 0x00 (0000ms, 3121ms total)
T336C 003:390 JLINK_WriteReg(PSP, 0x1FFF8800)  returns 0x00 (0000ms, 3121ms total)
T336C 003:390 JLINK_WriteReg(CFBP, 0x00000000)  returns 0x00 (0000ms, 3121ms total)
T336C 003:390 JLINK_SetBPEx(Addr = 0x1FFF8000, Type = 0xFFFFFFF2)  returns 0x00000006 (0000ms, 3121ms total)
T336C 003:390 JLINK_Go() -- CPU_WriteMem(4 bytes @ 0xE0002000) (0002ms, 3123ms total)
T336C 003:392 JLINK_IsHalted()  returns TRUE (0003ms, 3126ms total)
T336C 003:395 JLINK_ReadReg(R15 (PC))  returns 0x1FFF8000 (0000ms, 3123ms total)
T336C 003:395 JLINK_ClrBPEx(BPHandle = 0x00000006)  returns 0x00 (0000ms, 3123ms total)
T336C 003:395 JLINK_ReadReg(R0)  returns 0x00000001 (0000ms, 3123ms total)
T336C 003:395 JLINK_WriteReg(R0, 0x00001000)  returns 0x00 (0000ms, 3123ms total)
T336C 003:395 JLINK_WriteReg(R1, 0x00000800)  returns 0x00 (0000ms, 3123ms total)
T336C 003:395 JLINK_WriteReg(R2, 0x000000FF)  returns 0x00 (0000ms, 3123ms total)
T336C 003:395 JLINK_WriteReg(R3, 0x00000000)  returns 0x00 (0000ms, 3123ms total)
T336C 003:395 JLINK_WriteReg(R4, 0x00000000)  returns 0x00 (0000ms, 3123ms total)
T336C 003:395 JLINK_WriteReg(R5, 0x00000000)  returns 0x00 (0000ms, 3123ms total)
T336C 003:395 JLINK_WriteReg(R6, 0x00000000)  returns 0x00 (0000ms, 3123ms total)
T336C 003:395 JLINK_WriteReg(R7, 0x00000000)  returns 0x00 (0000ms, 3123ms total)
T336C 003:395 JLINK_WriteReg(R8, 0x00000000)  returns 0x00 (0000ms, 3123ms total)
T336C 003:395 JLINK_WriteReg(R9, 0x1FFF8500)  returns 0x00 (0000ms, 3123ms total)
T336C 003:395 JLINK_WriteReg(R10, 0x00000000)  returns 0x00 (0000ms, 3123ms total)
T336C 003:395 JLINK_WriteReg(R11, 0x00000000)  returns 0x00 (0000ms, 3123ms total)
T336C 003:395 JLINK_WriteReg(R12, 0x00000000)  returns 0x00 (0000ms, 3123ms total)
T336C 003:395 JLINK_WriteReg(R13 (SP), 0x1FFF8800)  returns 0x00 (0000ms, 3123ms total)
T336C 003:395 JLINK_WriteReg(R14, 0x1FFF8001)  returns 0x00 (0000ms, 3123ms total)
T336C 003:395 JLINK_WriteReg(R15 (PC), 0x1FFF80CE)  returns 0x00 (0000ms, 3123ms total)
T336C 003:395 JLINK_WriteReg(XPSR, 0x01000000)  returns 0x00 (0000ms, 3123ms total)
T336C 003:395 JLINK_WriteReg(MSP, 0x1FFF8800)  returns 0x00 (0000ms, 3123ms total)
T336C 003:395 JLINK_WriteReg(PSP, 0x1FFF8800)  returns 0x00 (0000ms, 3123ms total)
T336C 003:395 JLINK_WriteReg(CFBP, 0x00000000)  returns 0x00 (0000ms, 3123ms total)
T336C 003:395 JLINK_SetBPEx(Addr = 0x1FFF8000, Type = 0xFFFFFFF2)  returns 0x00000007 (0000ms, 3123ms total)
T336C 003:395 JLINK_Go() -- CPU_WriteMem(4 bytes @ 0xE0002000) (0002ms, 3125ms total)
T336C 003:397 JLINK_IsHalted()  returns FALSE (0001ms, 3126ms total)
T336C 003:400 JLINK_IsHalted()  returns FALSE (0000ms, 3125ms total)
T336C 003:401 JLINK_IsHalted()  returns FALSE (0001ms, 3126ms total)
T336C 003:403 JLINK_IsHalted()  returns FALSE (0001ms, 3126ms total)
T336C 003:405 JLINK_IsHalted()  returns FALSE (0000ms, 3125ms total)
T336C 003:407 JLINK_IsHalted()  returns TRUE (0002ms, 3127ms total)
T336C 003:409 JLINK_ReadReg(R15 (PC))  returns 0x1FFF8000 (0000ms, 3125ms total)
T336C 003:409 JLINK_ClrBPEx(BPHandle = 0x00000007)  returns 0x00 (0000ms, 3125ms total)
T336C 003:409 JLINK_ReadReg(R0)  returns 0x00000000 (0000ms, 3125ms total)
T336C 003:410 JLINK_WriteReg(R0, 0x00001800)  returns 0x00 (0000ms, 3125ms total)
T336C 003:410 JLINK_WriteReg(R1, 0x00000800)  returns 0x00 (0000ms, 3125ms total)
T336C 003:410 JLINK_WriteReg(R2, 0x000000FF)  returns 0x00 (0000ms, 3125ms total)
T336C 003:410 JLINK_WriteReg(R3, 0x00000000)  returns 0x00 (0000ms, 3125ms total)
T336C 003:410 JLINK_WriteReg(R4, 0x00000000)  returns 0x00 (0000ms, 3125ms total)
T336C 003:410 JLINK_WriteReg(R5, 0x00000000)  returns 0x00 (0000ms, 3125ms total)
T336C 003:410 JLINK_WriteReg(R6, 0x00000000)  returns 0x00 (0000ms, 3125ms total)
T336C 003:410 JLINK_WriteReg(R7, 0x00000000)  returns 0x00 (0000ms, 3125ms total)
T336C 003:410 JLINK_WriteReg(R8, 0x00000000)  returns 0x00 (0000ms, 3125ms total)
T336C 003:410 JLINK_WriteReg(R9, 0x1FFF8500)  returns 0x00 (0000ms, 3125ms total)
T336C 003:410 JLINK_WriteReg(R10, 0x00000000)  returns 0x00 (0000ms, 3125ms total)
T336C 003:410 JLINK_WriteReg(R11, 0x00000000)  returns 0x00 (0000ms, 3125ms total)
T336C 003:410 JLINK_WriteReg(R12, 0x00000000)  returns 0x00 (0000ms, 3125ms total)
T336C 003:410 JLINK_WriteReg(R13 (SP), 0x1FFF8800)  returns 0x00 (0000ms, 3125ms total)
T336C 003:410 JLINK_WriteReg(R14, 0x1FFF8001)  returns 0x00 (0000ms, 3125ms total)
T336C 003:410 JLINK_WriteReg(R15 (PC), 0x1FFF8078)  returns 0x00 (0000ms, 3125ms total)
T336C 003:410 JLINK_WriteReg(XPSR, 0x01000000)  returns 0x00 (0000ms, 3125ms total)
T336C 003:410 JLINK_WriteReg(MSP, 0x1FFF8800)  returns 0x00 (0000ms, 3125ms total)
T336C 003:410 JLINK_WriteReg(PSP, 0x1FFF8800)  returns 0x00 (0000ms, 3125ms total)
T336C 003:410 JLINK_WriteReg(CFBP, 0x00000000)  returns 0x00 (0000ms, 3125ms total)
T336C 003:410 JLINK_SetBPEx(Addr = 0x1FFF8000, Type = 0xFFFFFFF2)  returns 0x00000008 (0000ms, 3125ms total)
T336C 003:410 JLINK_Go() -- CPU_WriteMem(4 bytes @ 0xE0002000) (0003ms, 3128ms total)
T336C 003:413 JLINK_IsHalted()  returns TRUE (0002ms, 3130ms total)
T336C 003:415 JLINK_ReadReg(R15 (PC))  returns 0x1FFF8000 (0000ms, 3128ms total)
T336C 003:415 JLINK_ClrBPEx(BPHandle = 0x00000008)  returns 0x00 (0000ms, 3128ms total)
T336C 003:415 JLINK_ReadReg(R0)  returns 0x00000001 (0000ms, 3128ms total)
T336C 003:415 JLINK_WriteReg(R0, 0x00001800)  returns 0x00 (0000ms, 3128ms total)
T336C 003:415 JLINK_WriteReg(R1, 0x00000800)  returns 0x00 (0000ms, 3128ms total)
T336C 003:415 JLINK_WriteReg(R2, 0x000000FF)  returns 0x00 (0000ms, 3128ms total)
T336C 003:415 JLINK_WriteReg(R3, 0x00000000)  returns 0x00 (0000ms, 3128ms total)
T336C 003:415 JLINK_WriteReg(R4, 0x00000000)  returns 0x00 (0000ms, 3128ms total)
T336C 003:415 JLINK_WriteReg(R5, 0x00000000)  returns 0x00 (0000ms, 3128ms total)
T336C 003:415 JLINK_WriteReg(R6, 0x00000000)  returns 0x00 (0000ms, 3128ms total)
T336C 003:415 JLINK_WriteReg(R7, 0x00000000)  returns 0x00 (0000ms, 3128ms total)
T336C 003:415 JLINK_WriteReg(R8, 0x00000000)  returns 0x00 (0000ms, 3128ms total)
T336C 003:415 JLINK_WriteReg(R9, 0x1FFF8500)  returns 0x00 (0000ms, 3128ms total)
T336C 003:415 JLINK_WriteReg(R10, 0x00000000)  returns 0x00 (0000ms, 3128ms total)
T336C 003:415 JLINK_WriteReg(R11, 0x00000000)  returns 0x00 (0000ms, 3128ms total)
T336C 003:415 JLINK_WriteReg(R12, 0x00000000)  returns 0x00 (0000ms, 3128ms total)
T336C 003:415 JLINK_WriteReg(R13 (SP), 0x1FFF8800)  returns 0x00 (0000ms, 3128ms total)
T336C 003:415 JLINK_WriteReg(R14, 0x1FFF8001)  returns 0x00 (0000ms, 3128ms total)
T336C 003:415 JLINK_WriteReg(R15 (PC), 0x1FFF80CE)  returns 0x00 (0000ms, 3128ms total)
T336C 003:415 JLINK_WriteReg(XPSR, 0x01000000)  returns 0x00 (0000ms, 3128ms total)
T336C 003:415 JLINK_WriteReg(MSP, 0x1FFF8800)  returns 0x00 (0000ms, 3128ms total)
T336C 003:415 JLINK_WriteReg(PSP, 0x1FFF8800)  returns 0x00 (0000ms, 3128ms total)
T336C 003:415 JLINK_WriteReg(CFBP, 0x00000000)  returns 0x00 (0000ms, 3128ms total)
T336C 003:415 JLINK_SetBPEx(Addr = 0x1FFF8000, Type = 0xFFFFFFF2)  returns 0x00000009 (0000ms, 3128ms total)
T336C 003:415 JLINK_Go() -- CPU_WriteMem(4 bytes @ 0xE0002000) (0003ms, 3131ms total)
T336C 003:418 JLINK_IsHalted()  returns FALSE (0001ms, 3132ms total)
T336C 003:421 JLINK_IsHalted()  returns FALSE (0000ms, 3131ms total)
T336C 003:423 JLINK_IsHalted()  returns FALSE (0001ms, 3132ms total)
T336C 003:425 JLINK_IsHalted()  returns FALSE (0001ms, 3132ms total)
T336C 003:427 JLINK_IsHalted()  returns TRUE (0003ms, 3134ms total)
T336C 003:430 JLINK_ReadReg(R15 (PC))  returns 0x1FFF8000 (0000ms, 3131ms total)
T336C 003:430 JLINK_ClrBPEx(BPHandle = 0x00000009)  returns 0x00 (0000ms, 3131ms total)
T336C 003:430 JLINK_ReadReg(R0)  returns 0x00000000 (0000ms, 3131ms total)
T336C 003:430 JLINK_WriteReg(R0, 0x00002000)  returns 0x00 (0000ms, 3131ms total)
T336C 003:430 JLINK_WriteReg(R1, 0x00000800)  returns 0x00 (0000ms, 3131ms total)
T336C 003:430 JLINK_WriteReg(R2, 0x000000FF)  returns 0x00 (0000ms, 3131ms total)
T336C 003:430 JLINK_WriteReg(R3, 0x00000000)  returns 0x00 (0000ms, 3131ms total)
T336C 003:430 JLINK_WriteReg(R4, 0x00000000)  returns 0x00 (0000ms, 3131ms total)
T336C 003:430 JLINK_WriteReg(R5, 0x00000000)  returns 0x00 (0000ms, 3131ms total)
T336C 003:430 JLINK_WriteReg(R6, 0x00000000)  returns 0x00 (0000ms, 3131ms total)
T336C 003:430 JLINK_WriteReg(R7, 0x00000000)  returns 0x00 (0000ms, 3131ms total)
T336C 003:430 JLINK_WriteReg(R8, 0x00000000)  returns 0x00 (0000ms, 3131ms total)
T336C 003:430 JLINK_WriteReg(R9, 0x1FFF8500)  returns 0x00 (0000ms, 3131ms total)
T336C 003:430 JLINK_WriteReg(R10, 0x00000000)  returns 0x00 (0000ms, 3131ms total)
T336C 003:430 JLINK_WriteReg(R11, 0x00000000)  returns 0x00 (0000ms, 3131ms total)
T336C 003:430 JLINK_WriteReg(R12, 0x00000000)  returns 0x00 (0000ms, 3131ms total)
T336C 003:430 JLINK_WriteReg(R13 (SP), 0x1FFF8800)  returns 0x00 (0000ms, 3131ms total)
T336C 003:430 JLINK_WriteReg(R14, 0x1FFF8001)  returns 0x00 (0000ms, 3131ms total)
T336C 003:430 JLINK_WriteReg(R15 (PC), 0x1FFF8078)  returns 0x00 (0000ms, 3131ms total)
T336C 003:430 JLINK_WriteReg(XPSR, 0x01000000)  returns 0x00 (0000ms, 3131ms total)
T336C 003:430 JLINK_WriteReg(MSP, 0x1FFF8800)  returns 0x00 (0000ms, 3131ms total)
T336C 003:430 JLINK_WriteReg(PSP, 0x1FFF8800)  returns 0x00 (0000ms, 3131ms total)
T336C 003:430 JLINK_WriteReg(CFBP, 0x00000000)  returns 0x00 (0000ms, 3131ms total)
T336C 003:430 JLINK_SetBPEx(Addr = 0x1FFF8000, Type = 0xFFFFFFF2)  returns 0x0000000A (0000ms, 3131ms total)
T336C 003:430 JLINK_Go() -- CPU_WriteMem(4 bytes @ 0xE0002000) (0003ms, 3134ms total)
T336C 003:433 JLINK_IsHalted()  returns TRUE (0003ms, 3137ms total)
T336C 003:436 JLINK_ReadReg(R15 (PC))  returns 0x1FFF8000 (0000ms, 3134ms total)
T336C 003:436 JLINK_ClrBPEx(BPHandle = 0x0000000A)  returns 0x00 (0000ms, 3134ms total)
T336C 003:436 JLINK_ReadReg(R0)  returns 0x00000001 (0000ms, 3134ms total)
T336C 003:436 JLINK_WriteReg(R0, 0x00002000)  returns 0x00 (0000ms, 3134ms total)
T336C 003:436 JLINK_WriteReg(R1, 0x00000800)  returns 0x00 (0000ms, 3134ms total)
T336C 003:436 JLINK_WriteReg(R2, 0x000000FF)  returns 0x00 (0000ms, 3134ms total)
T336C 003:436 JLINK_WriteReg(R3, 0x00000000)  returns 0x00 (0000ms, 3134ms total)
T336C 003:436 JLINK_WriteReg(R4, 0x00000000)  returns 0x00 (0000ms, 3134ms total)
T336C 003:436 JLINK_WriteReg(R5, 0x00000000)  returns 0x00 (0000ms, 3134ms total)
T336C 003:436 JLINK_WriteReg(R6, 0x00000000)  returns 0x00 (0000ms, 3134ms total)
T336C 003:436 JLINK_WriteReg(R7, 0x00000000)  returns 0x00 (0000ms, 3134ms total)
T336C 003:436 JLINK_WriteReg(R8, 0x00000000)  returns 0x00 (0000ms, 3134ms total)
T336C 003:436 JLINK_WriteReg(R9, 0x1FFF8500)  returns 0x00 (0000ms, 3134ms total)
T336C 003:436 JLINK_WriteReg(R10, 0x00000000)  returns 0x00 (0000ms, 3134ms total)
T336C 003:436 JLINK_WriteReg(R11, 0x00000000)  returns 0x00 (0000ms, 3134ms total)
T336C 003:436 JLINK_WriteReg(R12, 0x00000000)  returns 0x00 (0000ms, 3134ms total)
T336C 003:436 JLINK_WriteReg(R13 (SP), 0x1FFF8800)  returns 0x00 (0000ms, 3134ms total)
T336C 003:436 JLINK_WriteReg(R14, 0x1FFF8001)  returns 0x00 (0000ms, 3134ms total)
T336C 003:436 JLINK_WriteReg(R15 (PC), 0x1FFF80CE)  returns 0x00 (0000ms, 3134ms total)
T336C 003:436 JLINK_WriteReg(XPSR, 0x01000000)  returns 0x00 (0000ms, 3134ms total)
T336C 003:436 JLINK_WriteReg(MSP, 0x1FFF8800)  returns 0x00 (0000ms, 3134ms total)
T336C 003:436 JLINK_WriteReg(PSP, 0x1FFF8800)  returns 0x00 (0000ms, 3134ms total)
T336C 003:436 JLINK_WriteReg(CFBP, 0x00000000)  returns 0x00 (0000ms, 3134ms total)
T336C 003:436 JLINK_SetBPEx(Addr = 0x1FFF8000, Type = 0xFFFFFFF2)  returns 0x0000000B (0000ms, 3134ms total)
T336C 003:436 JLINK_Go() -- CPU_WriteMem(4 bytes @ 0xE0002000) (0002ms, 3136ms total)
T336C 003:438 JLINK_IsHalted()  returns FALSE (0001ms, 3137ms total)
T336C 003:442 JLINK_IsHalted()  returns FALSE (0000ms, 3136ms total)
T336C 003:444 JLINK_IsHalted()  returns FALSE (0000ms, 3136ms total)
T336C 003:446 JLINK_IsHalted()  returns FALSE (0000ms, 3136ms total)
T336C 003:448 JLINK_IsHalted()  returns TRUE (0003ms, 3139ms total)
T336C 003:451 JLINK_ReadReg(R15 (PC))  returns 0x1FFF8000 (0000ms, 3136ms total)
T336C 003:451 JLINK_ClrBPEx(BPHandle = 0x0000000B)  returns 0x00 (0000ms, 3136ms total)
T336C 003:451 JLINK_ReadReg(R0)  returns 0x00000000 (0000ms, 3136ms total)
T336C 003:452 JLINK_WriteReg(R0, 0x00002800)  returns 0x00 (0000ms, 3136ms total)
T336C 003:452 JLINK_WriteReg(R1, 0x00000800)  returns 0x00 (0000ms, 3136ms total)
T336C 003:452 JLINK_WriteReg(R2, 0x000000FF)  returns 0x00 (0000ms, 3136ms total)
T336C 003:452 JLINK_WriteReg(R3, 0x00000000)  returns 0x00 (0000ms, 3136ms total)
T336C 003:452 JLINK_WriteReg(R4, 0x00000000)  returns 0x00 (0000ms, 3136ms total)
T336C 003:452 JLINK_WriteReg(R5, 0x00000000)  returns 0x00 (0000ms, 3136ms total)
T336C 003:452 JLINK_WriteReg(R6, 0x00000000)  returns 0x00 (0000ms, 3136ms total)
T336C 003:452 JLINK_WriteReg(R7, 0x00000000)  returns 0x00 (0000ms, 3136ms total)
T336C 003:452 JLINK_WriteReg(R8, 0x00000000)  returns 0x00 (0000ms, 3136ms total)
T336C 003:452 JLINK_WriteReg(R9, 0x1FFF8500)  returns 0x00 (0000ms, 3136ms total)
T336C 003:452 JLINK_WriteReg(R10, 0x00000000)  returns 0x00 (0000ms, 3136ms total)
T336C 003:452 JLINK_WriteReg(R11, 0x00000000)  returns 0x00 (0000ms, 3136ms total)
T336C 003:452 JLINK_WriteReg(R12, 0x00000000)  returns 0x00 (0000ms, 3136ms total)
T336C 003:452 JLINK_WriteReg(R13 (SP), 0x1FFF8800)  returns 0x00 (0000ms, 3136ms total)
T336C 003:452 JLINK_WriteReg(R14, 0x1FFF8001)  returns 0x00 (0000ms, 3136ms total)
T336C 003:452 JLINK_WriteReg(R15 (PC), 0x1FFF8078)  returns 0x00 (0000ms, 3136ms total)
T336C 003:452 JLINK_WriteReg(XPSR, 0x01000000)  returns 0x00 (0000ms, 3136ms total)
T336C 003:452 JLINK_WriteReg(MSP, 0x1FFF8800)  returns 0x00 (0000ms, 3136ms total)
T336C 003:452 JLINK_WriteReg(PSP, 0x1FFF8800)  returns 0x00 (0000ms, 3136ms total)
T336C 003:452 JLINK_WriteReg(CFBP, 0x00000000)  returns 0x00 (0000ms, 3136ms total)
T336C 003:452 JLINK_SetBPEx(Addr = 0x1FFF8000, Type = 0xFFFFFFF2)  returns 0x0000000C (0000ms, 3136ms total)
T336C 003:452 JLINK_Go() -- CPU_WriteMem(4 bytes @ 0xE0002000) (0002ms, 3138ms total)
T336C 003:454 JLINK_IsHalted()  returns TRUE (0003ms, 3141ms total)
T336C 003:457 JLINK_ReadReg(R15 (PC))  returns 0x1FFF8000 (0000ms, 3138ms total)
T336C 003:457 JLINK_ClrBPEx(BPHandle = 0x0000000C)  returns 0x00 (0000ms, 3138ms total)
T336C 003:457 JLINK_ReadReg(R0)  returns 0x00000001 (0000ms, 3138ms total)
T336C 003:457 JLINK_WriteReg(R0, 0x00002800)  returns 0x00 (0000ms, 3138ms total)
T336C 003:457 JLINK_WriteReg(R1, 0x00000800)  returns 0x00 (0000ms, 3138ms total)
T336C 003:457 JLINK_WriteReg(R2, 0x000000FF)  returns 0x00 (0000ms, 3138ms total)
T336C 003:457 JLINK_WriteReg(R3, 0x00000000)  returns 0x00 (0000ms, 3138ms total)
T336C 003:457 JLINK_WriteReg(R4, 0x00000000)  returns 0x00 (0000ms, 3138ms total)
T336C 003:457 JLINK_WriteReg(R5, 0x00000000)  returns 0x00 (0000ms, 3138ms total)
T336C 003:457 JLINK_WriteReg(R6, 0x00000000)  returns 0x00 (0000ms, 3138ms total)
T336C 003:457 JLINK_WriteReg(R7, 0x00000000)  returns 0x00 (0000ms, 3138ms total)
T336C 003:457 JLINK_WriteReg(R8, 0x00000000)  returns 0x00 (0000ms, 3138ms total)
T336C 003:457 JLINK_WriteReg(R9, 0x1FFF8500)  returns 0x00 (0000ms, 3138ms total)
T336C 003:457 JLINK_WriteReg(R10, 0x00000000)  returns 0x00 (0000ms, 3138ms total)
T336C 003:457 JLINK_WriteReg(R11, 0x00000000)  returns 0x00 (0000ms, 3138ms total)
T336C 003:457 JLINK_WriteReg(R12, 0x00000000)  returns 0x00 (0000ms, 3138ms total)
T336C 003:457 JLINK_WriteReg(R13 (SP), 0x1FFF8800)  returns 0x00 (0000ms, 3138ms total)
T336C 003:457 JLINK_WriteReg(R14, 0x1FFF8001)  returns 0x00 (0000ms, 3138ms total)
T336C 003:457 JLINK_WriteReg(R15 (PC), 0x1FFF80CE)  returns 0x00 (0000ms, 3138ms total)
T336C 003:457 JLINK_WriteReg(XPSR, 0x01000000)  returns 0x00 (0000ms, 3138ms total)
T336C 003:457 JLINK_WriteReg(MSP, 0x1FFF8800)  returns 0x00 (0000ms, 3138ms total)
T336C 003:457 JLINK_WriteReg(PSP, 0x1FFF8800)  returns 0x00 (0000ms, 3138ms total)
T336C 003:457 JLINK_WriteReg(CFBP, 0x00000000)  returns 0x00 (0000ms, 3138ms total)
T336C 003:457 JLINK_SetBPEx(Addr = 0x1FFF8000, Type = 0xFFFFFFF2)  returns 0x0000000D (0000ms, 3138ms total)
T336C 003:457 JLINK_Go() -- CPU_WriteMem(4 bytes @ 0xE0002000) (0002ms, 3140ms total)
T336C 003:459 JLINK_IsHalted()  returns FALSE (0001ms, 3141ms total)
T336C 003:461 JLINK_IsHalted()  returns FALSE (0001ms, 3141ms total)
T336C 003:463 JLINK_IsHalted()  returns FALSE (0001ms, 3141ms total)
T336C 003:465 JLINK_IsHalted()  returns FALSE (0001ms, 3141ms total)
T336C 003:467 JLINK_IsHalted()  returns FALSE (0001ms, 3141ms total)
T336C 003:469 JLINK_IsHalted()  returns TRUE (0003ms, 3143ms total)
T336C 003:472 JLINK_ReadReg(R15 (PC))  returns 0x1FFF8000 (0000ms, 3140ms total)
T336C 003:472 JLINK_ClrBPEx(BPHandle = 0x0000000D)  returns 0x00 (0000ms, 3140ms total)
T336C 003:472 JLINK_ReadReg(R0)  returns 0x00000000 (0000ms, 3140ms total)
T336C 003:472 JLINK_WriteReg(R0, 0x00003000)  returns 0x00 (0000ms, 3140ms total)
T336C 003:472 JLINK_WriteReg(R1, 0x00000800)  returns 0x00 (0000ms, 3140ms total)
T336C 003:472 JLINK_WriteReg(R2, 0x000000FF)  returns 0x00 (0000ms, 3140ms total)
T336C 003:472 JLINK_WriteReg(R3, 0x00000000)  returns 0x00 (0000ms, 3140ms total)
T336C 003:472 JLINK_WriteReg(R4, 0x00000000)  returns 0x00 (0000ms, 3140ms total)
T336C 003:472 JLINK_WriteReg(R5, 0x00000000)  returns 0x00 (0000ms, 3140ms total)
T336C 003:472 JLINK_WriteReg(R6, 0x00000000)  returns 0x00 (0000ms, 3140ms total)
T336C 003:472 JLINK_WriteReg(R7, 0x00000000)  returns 0x00 (0000ms, 3140ms total)
T336C 003:472 JLINK_WriteReg(R8, 0x00000000)  returns 0x00 (0000ms, 3140ms total)
T336C 003:472 JLINK_WriteReg(R9, 0x1FFF8500)  returns 0x00 (0000ms, 3140ms total)
T336C 003:472 JLINK_WriteReg(R10, 0x00000000)  returns 0x00 (0000ms, 3140ms total)
T336C 003:472 JLINK_WriteReg(R11, 0x00000000)  returns 0x00 (0000ms, 3140ms total)
T336C 003:472 JLINK_WriteReg(R12, 0x00000000)  returns 0x00 (0000ms, 3140ms total)
T336C 003:472 JLINK_WriteReg(R13 (SP), 0x1FFF8800)  returns 0x00 (0000ms, 3140ms total)
T336C 003:472 JLINK_WriteReg(R14, 0x1FFF8001)  returns 0x00 (0000ms, 3140ms total)
T336C 003:472 JLINK_WriteReg(R15 (PC), 0x1FFF8078)  returns 0x00 (0000ms, 3140ms total)
T336C 003:472 JLINK_WriteReg(XPSR, 0x01000000)  returns 0x00 (0000ms, 3140ms total)
T336C 003:472 JLINK_WriteReg(MSP, 0x1FFF8800)  returns 0x00 (0000ms, 3140ms total)
T336C 003:472 JLINK_WriteReg(PSP, 0x1FFF8800)  returns 0x00 (0000ms, 3140ms total)
T336C 003:472 JLINK_WriteReg(CFBP, 0x00000000)  returns 0x00 (0000ms, 3140ms total)
T336C 003:472 JLINK_SetBPEx(Addr = 0x1FFF8000, Type = 0xFFFFFFF2)  returns 0x0000000E (0000ms, 3140ms total)
T336C 003:472 JLINK_Go() -- CPU_WriteMem(4 bytes @ 0xE0002000) (0002ms, 3142ms total)
T336C 003:474 JLINK_IsHalted()  returns TRUE (0003ms, 3145ms total)
T336C 003:477 JLINK_ReadReg(R15 (PC))  returns 0x1FFF8000 (0000ms, 3142ms total)
T336C 003:477 JLINK_ClrBPEx(BPHandle = 0x0000000E)  returns 0x00 (0000ms, 3142ms total)
T336C 003:477 JLINK_ReadReg(R0)  returns 0x00000001 (0000ms, 3142ms total)
T336C 003:477 JLINK_WriteReg(R0, 0x00003000)  returns 0x00 (0000ms, 3142ms total)
T336C 003:477 JLINK_WriteReg(R1, 0x00000800)  returns 0x00 (0000ms, 3142ms total)
T336C 003:477 JLINK_WriteReg(R2, 0x000000FF)  returns 0x00 (0000ms, 3142ms total)
T336C 003:477 JLINK_WriteReg(R3, 0x00000000)  returns 0x00 (0000ms, 3142ms total)
T336C 003:477 JLINK_WriteReg(R4, 0x00000000)  returns 0x00 (0000ms, 3142ms total)
T336C 003:477 JLINK_WriteReg(R5, 0x00000000)  returns 0x00 (0000ms, 3142ms total)
T336C 003:477 JLINK_WriteReg(R6, 0x00000000)  returns 0x00 (0000ms, 3142ms total)
T336C 003:477 JLINK_WriteReg(R7, 0x00000000)  returns 0x00 (0000ms, 3142ms total)
T336C 003:477 JLINK_WriteReg(R8, 0x00000000)  returns 0x00 (0000ms, 3142ms total)
T336C 003:477 JLINK_WriteReg(R9, 0x1FFF8500)  returns 0x00 (0000ms, 3142ms total)
T336C 003:477 JLINK_WriteReg(R10, 0x00000000)  returns 0x00 (0000ms, 3142ms total)
T336C 003:477 JLINK_WriteReg(R11, 0x00000000)  returns 0x00 (0000ms, 3142ms total)
T336C 003:477 JLINK_WriteReg(R12, 0x00000000)  returns 0x00 (0000ms, 3142ms total)
T336C 003:477 JLINK_WriteReg(R13 (SP), 0x1FFF8800)  returns 0x00 (0000ms, 3142ms total)
T336C 003:477 JLINK_WriteReg(R14, 0x1FFF8001)  returns 0x00 (0000ms, 3142ms total)
T336C 003:477 JLINK_WriteReg(R15 (PC), 0x1FFF80CE)  returns 0x00 (0000ms, 3142ms total)
T336C 003:477 JLINK_WriteReg(XPSR, 0x01000000)  returns 0x00 (0000ms, 3142ms total)
T336C 003:477 JLINK_WriteReg(MSP, 0x1FFF8800)  returns 0x00 (0000ms, 3142ms total)
T336C 003:477 JLINK_WriteReg(PSP, 0x1FFF8800)  returns 0x00 (0000ms, 3142ms total)
T336C 003:477 JLINK_WriteReg(CFBP, 0x00000000)  returns 0x00 (0000ms, 3142ms total)
T336C 003:477 JLINK_SetBPEx(Addr = 0x1FFF8000, Type = 0xFFFFFFF2)  returns 0x0000000F (0001ms, 3143ms total)
T336C 003:478 JLINK_Go() -- CPU_WriteMem(4 bytes @ 0xE0002000) (0002ms, 3145ms total)
T336C 003:480 JLINK_IsHalted()  returns FALSE (0000ms, 3145ms total)
T336C 003:483 JLINK_IsHalted()  returns FALSE (0001ms, 3146ms total)
T336C 003:485 JLINK_IsHalted()  returns FALSE (0000ms, 3145ms total)
T336C 003:487 JLINK_IsHalted()  returns FALSE (0000ms, 3145ms total)
T336C 003:489 JLINK_IsHalted()  returns TRUE (0002ms, 3147ms total)
T336C 003:491 JLINK_ReadReg(R15 (PC))  returns 0x1FFF8000 (0000ms, 3145ms total)
T336C 003:491 JLINK_ClrBPEx(BPHandle = 0x0000000F)  returns 0x00 (0000ms, 3145ms total)
T336C 003:491 JLINK_ReadReg(R0)  returns 0x00000000 (0000ms, 3145ms total)
T336C 003:492 JLINK_WriteReg(R0, 0x00003800)  returns 0x00 (0000ms, 3145ms total)
T336C 003:492 JLINK_WriteReg(R1, 0x00000800)  returns 0x00 (0000ms, 3145ms total)
T336C 003:492 JLINK_WriteReg(R2, 0x000000FF)  returns 0x00 (0000ms, 3145ms total)
T336C 003:492 JLINK_WriteReg(R3, 0x00000000)  returns 0x00 (0000ms, 3145ms total)
T336C 003:492 JLINK_WriteReg(R4, 0x00000000)  returns 0x00 (0000ms, 3145ms total)
T336C 003:492 JLINK_WriteReg(R5, 0x00000000)  returns 0x00 (0000ms, 3145ms total)
T336C 003:492 JLINK_WriteReg(R6, 0x00000000)  returns 0x00 (0000ms, 3145ms total)
T336C 003:492 JLINK_WriteReg(R7, 0x00000000)  returns 0x00 (0000ms, 3145ms total)
T336C 003:492 JLINK_WriteReg(R8, 0x00000000)  returns 0x00 (0000ms, 3145ms total)
T336C 003:492 JLINK_WriteReg(R9, 0x1FFF8500)  returns 0x00 (0000ms, 3145ms total)
T336C 003:492 JLINK_WriteReg(R10, 0x00000000)  returns 0x00 (0000ms, 3145ms total)
T336C 003:492 JLINK_WriteReg(R11, 0x00000000)  returns 0x00 (0000ms, 3145ms total)
T336C 003:492 JLINK_WriteReg(R12, 0x00000000)  returns 0x00 (0000ms, 3145ms total)
T336C 003:492 JLINK_WriteReg(R13 (SP), 0x1FFF8800)  returns 0x00 (0000ms, 3145ms total)
T336C 003:492 JLINK_WriteReg(R14, 0x1FFF8001)  returns 0x00 (0000ms, 3145ms total)
T336C 003:492 JLINK_WriteReg(R15 (PC), 0x1FFF8078)  returns 0x00 (0000ms, 3145ms total)
T336C 003:492 JLINK_WriteReg(XPSR, 0x01000000)  returns 0x00 (0000ms, 3145ms total)
T336C 003:492 JLINK_WriteReg(MSP, 0x1FFF8800)  returns 0x00 (0000ms, 3145ms total)
T336C 003:492 JLINK_WriteReg(PSP, 0x1FFF8800)  returns 0x00 (0000ms, 3145ms total)
T336C 003:492 JLINK_WriteReg(CFBP, 0x00000000)  returns 0x00 (0000ms, 3145ms total)
T336C 003:492 JLINK_SetBPEx(Addr = 0x1FFF8000, Type = 0xFFFFFFF2)  returns 0x00000010 (0000ms, 3145ms total)
T336C 003:492 JLINK_Go() -- CPU_WriteMem(4 bytes @ 0xE0002000) (0002ms, 3147ms total)
T336C 003:494 JLINK_IsHalted()  returns TRUE (0002ms, 3149ms total)
T336C 003:496 JLINK_ReadReg(R15 (PC))  returns 0x1FFF8000 (0000ms, 3147ms total)
T336C 003:496 JLINK_ClrBPEx(BPHandle = 0x00000010)  returns 0x00 (0000ms, 3147ms total)
T336C 003:496 JLINK_ReadReg(R0)  returns 0x00000001 (0000ms, 3147ms total)
T336C 003:496 JLINK_WriteReg(R0, 0x00003800)  returns 0x00 (0000ms, 3147ms total)
T336C 003:496 JLINK_WriteReg(R1, 0x00000800)  returns 0x00 (0000ms, 3147ms total)
T336C 003:496 JLINK_WriteReg(R2, 0x000000FF)  returns 0x00 (0000ms, 3147ms total)
T336C 003:496 JLINK_WriteReg(R3, 0x00000000)  returns 0x00 (0000ms, 3147ms total)
T336C 003:496 JLINK_WriteReg(R4, 0x00000000)  returns 0x00 (0000ms, 3147ms total)
T336C 003:496 JLINK_WriteReg(R5, 0x00000000)  returns 0x00 (0000ms, 3147ms total)
T336C 003:496 JLINK_WriteReg(R6, 0x00000000)  returns 0x00 (0000ms, 3147ms total)
T336C 003:496 JLINK_WriteReg(R7, 0x00000000)  returns 0x00 (0000ms, 3147ms total)
T336C 003:496 JLINK_WriteReg(R8, 0x00000000)  returns 0x00 (0000ms, 3147ms total)
T336C 003:496 JLINK_WriteReg(R9, 0x1FFF8500)  returns 0x00 (0000ms, 3147ms total)
T336C 003:496 JLINK_WriteReg(R10, 0x00000000)  returns 0x00 (0000ms, 3147ms total)
T336C 003:496 JLINK_WriteReg(R11, 0x00000000)  returns 0x00 (0000ms, 3147ms total)
T336C 003:496 JLINK_WriteReg(R12, 0x00000000)  returns 0x00 (0000ms, 3147ms total)
T336C 003:496 JLINK_WriteReg(R13 (SP), 0x1FFF8800)  returns 0x00 (0000ms, 3147ms total)
T336C 003:496 JLINK_WriteReg(R14, 0x1FFF8001)  returns 0x00 (0000ms, 3147ms total)
T336C 003:496 JLINK_WriteReg(R15 (PC), 0x1FFF80CE)  returns 0x00 (0000ms, 3147ms total)
T336C 003:496 JLINK_WriteReg(XPSR, 0x01000000)  returns 0x00 (0000ms, 3147ms total)
T336C 003:496 JLINK_WriteReg(MSP, 0x1FFF8800)  returns 0x00 (0000ms, 3147ms total)
T336C 003:496 JLINK_WriteReg(PSP, 0x1FFF8800)  returns 0x00 (0000ms, 3147ms total)
T336C 003:496 JLINK_WriteReg(CFBP, 0x00000000)  returns 0x00 (0000ms, 3147ms total)
T336C 003:496 JLINK_SetBPEx(Addr = 0x1FFF8000, Type = 0xFFFFFFF2)  returns 0x00000011 (0000ms, 3147ms total)
T336C 003:496 JLINK_Go() -- CPU_WriteMem(4 bytes @ 0xE0002000) (0003ms, 3150ms total)
T336C 003:499 JLINK_IsHalted()  returns FALSE (0000ms, 3150ms total)
T336C 003:501 JLINK_IsHalted()  returns FALSE (0001ms, 3151ms total)
T336C 003:503 JLINK_IsHalted()  returns FALSE (0001ms, 3151ms total)
T336C 003:505 JLINK_IsHalted()  returns FALSE (0000ms, 3150ms total)
T336C 003:507 JLINK_IsHalted()  returns FALSE (0000ms, 3150ms total)
T336C 003:509 JLINK_IsHalted()  returns TRUE (0002ms, 3152ms total)
T336C 003:511 JLINK_ReadReg(R15 (PC))  returns 0x1FFF8000 (0000ms, 3150ms total)
